T656C 1818:936 SEGGER J-Link V6.32i Log File (0000ms, 7695ms total)
T656C 1818:936 DLL Compiled: Jul 24 2018 15:19:55 (0000ms, 7695ms total)
T656C 1818:936 Logging started @ 2019-04-17 10:50 (0000ms, 7695ms total)
T656C 1818:936 JLINK_SetWarnOutHandler(...) (0000ms, 7695ms total)
T656C 1818:936 JLINK_OpenEx(...)
Firmware: J-Link V9 compiled Apr 20 2018 16:47:26
Hardware: V9.40
S/N: 59400616
Feature(s): RDI, FlashBP, FlashDL, JFlash, GDB
TELNET listener socket opened on port 19021WEBSRV 
Starting webserver (0028ms, 7723ms total)
T656C 1818:936 WEBSRV Webserver running on local port 19080 (0028ms, 7723ms total)
T656C 1818:936   returns O.K. (0028ms, 7723ms total)
T656C 1818:964 JLINK_GetEmuCaps()  returns 0xB9FF7BBF (0000ms, 7723ms total)
T656C 1818:965 JLINK_TIF_GetAvailable(...) (0001ms, 7724ms total)
T656C 1818:966 JLINK_SetErrorOutHandler(...) (0000ms, 7724ms total)
T656C 1818:966 JLINK_ExecCommand("ProjectFile = "E:\myStudy\stm32_student_project\Onboard-SDK1.0\Project\JLinkSettings.ini"", ...).   returns 0x00 (0002ms, 7726ms total)
T656C 1818:968 JLINK_ExecCommand("Device = STM32F407ZGTx", ...). Device "STM32F407ZG" selected.  returns 0x00 (0005ms, 7731ms total)
T656C 1818:973 JLINK_ExecCommand("DisableConnectionTimeout", ...).   returns 0x01 (0000ms, 7731ms total)
T656C 1818:973 JLINK_GetHardwareVersion()  returns 0x16F30 (0000ms, 7731ms total)
T656C 1818:973 JLINK_GetDLLVersion()  returns 63209 (0000ms, 7731ms total)
T656C 1818:973 JLINK_GetFirmwareString(...) (0000ms, 7731ms total)
T656C 1818:973 JLINK_GetDLLVersion()  returns 63209 (0000ms, 7731ms total)
T656C 1818:973 JLINK_GetCompileDateTime() (0000ms, 7731ms total)
T656C 1818:973 JLINK_GetFirmwareString(...) (0000ms, 7731ms total)
T656C 1818:973 JLINK_GetHardwareVersion()  returns 0x16F30 (0000ms, 7731ms total)
T656C 1818:973 JLINK_TIF_Select(JLINKARM_TIF_SWD)  returns 0x00 (0003ms, 7734ms total)
T656C 1818:976 JLINK_SetSpeed(10000) (0001ms, 7735ms total)
T656C 1818:977 JLINK_GetId() >0x10B TIF>Found SW-DP with ID 0x2BA01477 >0x0D TIF> >0x28 TIF> >0x0D TIF> >0x28 TIF> >0x0D TIF> >0x28 TIF> >0x0D TIF> >0x28 TIF> >0x0D TIF> >0x21 TIF> >0x0D TIF> >0x28 TIF> >0x0D TIF> >0x28 TIF> >0x0D TIF> >0x28 TIF> >0x0D TIF> >0x21 TIF> >0x0D TIF> >0x21 TIF> >0x0D TIF> >0x28 TIF> >0x0D TIF> >0x21 TIF> >0x0D TIF> >0x21 TIF> >0x0D TIF> >0x28 TIF> >0x0D TIF> >0x21 TIF> >0x0D TIF> >0x21 TIF> >0x0D TIF> >0x28 TIF> >0x0D TIF> >0x21 TIF> >0x0D TIF> >0x21 TIF> >0x0D TIF>
 >0x28 TIF> >0x0D TIF> >0x21 TIF> >0x0D TIF> >0x21 TIF> >0x0D TIF> >0x28 TIF> >0x0D TIF> >0x21 TIF> >0x0D TIF> >0x21 TIF> >0x10B TIF>Found SW-DP with ID 0x2BA01477 >0x0D TIF> >0x28 TIF> >0x0D TIF> >0x28 TIF> >0x0D TIF> >0x28 TIF> >0x0D TIF> >0x28 TIF> >0x0D TIF> >0x21 TIF> >0x0D TIF> >0x28 TIF>Scanning AP map to find all available APs >0x0D TIF> >0x28 TIF> >0x0D TIF> >0x21 TIF> >0x0D TIF> >0x21 TIF> >0x0D TIF> >0x28 TIF> >0x0D TIF> >0x21 TIF> >0x0D TIF> >0x21 TIF>
AP[1]: Stopped AP scan as end of AP map has been reachedAP[0]: AHB-AP (IDR: 0x24770011)Iterating through AP map to find AHB-AP to use >0x42 TIF> >0x28 TIF> >0x0D TIF> >0x28 TIF> >0x0D TIF> >0x21 TIF> >0x0D TIF> >0x21 TIF> >0x42 TIF> >0x28 TIF> >0x0D TIF> >0x28 TIF> >0x0D TIF> >0x28 TIF> >0x0D TIF> >0x21 TIF> >0x0D TIF> >0x21 TIF>AP[0]: Core foundAP[0]: AHB-AP ROM base: 0xE00FF000 >0x0D TIF> >0x28 TIF> >0x0D TIF> >0x28 TIF> >0x0D TIF> >0x28 TIF> >0x0D TIF> >0x21 TIF> >0x0D TIF> >0x21 TIF>
CPUID register: 0x410FC241. Implementer code: 0x41 (ARM)Found Cortex-M4 r0p1, Little endian. -- Max. mem block: 0x00010F28 -- CPU_ReadMem(4 bytes @ 0xE000EDF0) -- CPU_WriteMem(4 bytes @ 0xE000EDF0) -- CPU_ReadMem(4 bytes @ 0xE0002000)FPUnit: 6 code (BP) slots and 2 literal slots -- CPU_ReadMem(4 bytes @ 0xE000EDFC) -- CPU_WriteMem(4 bytes @ 0xE000EDFC) -- CPU_ReadMem(4 bytes @ 0xE0001000) -- CPU_WriteMem(4 bytes @ 0xE0001000) -- CPU_ReadMem(4 bytes @ 0xE000ED88) -- CPU_WriteMem(4 bytes @ 0xE000ED88)
 -- CPU_ReadMem(4 bytes @ 0xE000ED88) -- CPU_WriteMem(4 bytes @ 0xE000ED88)CoreSight components:ROMTbl[0] @ E00FF000 -- CPU_ReadMem(16 bytes @ 0xE00FF000) -- CPU_ReadMem(16 bytes @ 0xE000EFF0) -- CPU_ReadMem(16 bytes @ 0xE000EFE0)ROMTbl[0][0]: E000E000, CID: B105E00D, PID: 000BB00C SCS-M7 -- CPU_ReadMem(16 bytes @ 0xE0001FF0) -- CPU_ReadMem(16 bytes @ 0xE0001FE0)ROMTbl[0][1]: E0001000, CID: B105E00D, PID: 003BB002 DWT -- CPU_ReadMem(16 bytes @ 0xE0002FF0) -- CPU_ReadMem(16 bytes @ 0xE0002FE0)
ROMTbl[0][2]: E0002000, CID: B105E00D, PID: 002BB003 FPB -- CPU_ReadMem(16 bytes @ 0xE0000FF0) -- CPU_ReadMem(16 bytes @ 0xE0000FE0)ROMTbl[0][3]: E0000000, CID: B105E00D, PID: 003BB001 ITM -- CPU_ReadMem(16 bytes @ 0xE00FF010) -- CPU_ReadMem(16 bytes @ 0xE0040FF0) -- CPU_ReadMem(16 bytes @ 0xE0040FE0)ROMTbl[0][4]: E0040000, CID: B105900D, PID: 000BB9A1 TPIU -- CPU_ReadMem(16 bytes @ 0xE0041FF0) -- CPU_ReadMem(16 bytes @ 0xE0041FE0)ROMTbl[0][5]: E0041000, CID: B105900D, PID: 000BB925 ETM >0x0D TIF>
 >0x21 TIF>  returns 0x2BA01477 (0206ms, 7941ms total)
T656C 1819:183 JLINK_GetDLLVersion()  returns 63209 (0000ms, 7941ms total)
T656C 1819:183 JLINK_CORE_GetFound()  returns 0xE0000FF (0000ms, 7941ms total)
T656C 1819:183 JLINK_GetDebugInfo(0x100 = JLINKARM_ROM_TABLE_ADDR_INDEX) -- Value=0xE00FF000  returns 0x00 (0000ms, 7941ms total)
T656C 1819:183 JLINK_GetDebugInfo(0x100 = JLINKARM_ROM_TABLE_ADDR_INDEX) -- Value=0xE00FF000  returns 0x00 (0000ms, 7941ms total)
T656C 1819:183 JLINK_GetDebugInfo(0x101 = JLINKARM_DEBUG_INFO_ETM_ADDR_INDEX) -- Value=0xE0041000  returns 0x00 (0000ms, 7941ms total)
T656C 1819:183 JLINK_ReadMemEx(0xE0041FD0, 0x0020 Bytes, ..., Flags = 0x02000004) -- CPU_ReadMem(32 bytes @ 0xE0041FD0) - Data: 04 00 00 00 00 00 00 00 00 00 00 00 00 00 00 00 ...  returns 0x20 (0001ms, 7942ms total)
T656C 1819:184 JLINK_GetDebugInfo(0x102 = JLINKARM_DEBUG_INFO_MTB_ADDR_INDEX) -- Value=0x00000000  returns 0x00 (0000ms, 7942ms total)
T656C 1819:184 JLINK_GetDebugInfo(0x103 = JLINKARM_DEBUG_INFO_TPIU_ADDR_INDEX) -- Value=0xE0040000  returns 0x00 (0000ms, 7942ms total)
T656C 1819:184 JLINK_GetDebugInfo(0x104 = JLINKARM_DEBUG_INFO_ITM_ADDR_INDEX) -- Value=0xE0000000  returns 0x00 (0000ms, 7942ms total)
T656C 1819:184 JLINK_GetDebugInfo(0x105 = JLINKARM_DEBUG_INFO_DWT_ADDR_INDEX) -- Value=0xE0001000  returns 0x00 (0000ms, 7942ms total)
T656C 1819:184 JLINK_GetDebugInfo(0x106 = JLINKARM_DEBUG_INFO_FPB_ADDR_INDEX) -- Value=0xE0002000  returns 0x00 (0000ms, 7942ms total)
T656C 1819:184 JLINK_GetDebugInfo(0x107 = JLINKARM_DEBUG_INFO_NVIC_ADDR_INDEX) -- Value=0xE000E000  returns 0x00 (0000ms, 7942ms total)
T656C 1819:184 JLINK_GetDebugInfo(0x10C = JLINKARM_DEBUG_INFO_DBG_ADDR_INDEX) -- Value=0xE000EDF0  returns 0x00 (0000ms, 7942ms total)
T656C 1819:184 JLINK_GetDebugInfo(0x01 = Unknown) -- Value=0x00000001  returns 0x00 (0001ms, 7943ms total)
T656C 1819:185 JLINK_ReadMemU32(0xE000ED00, 0x0001 Items, ...) -- CPU_ReadMem(4 bytes @ 0xE000ED00) - Data: 41 C2 0F 41  returns 0x01 (0000ms, 7943ms total)
T656C 1819:186 JLINK_GetDebugInfo(0x10F = JLINKARM_DEBUG_INFO_HAS_CORTEX_M_SECURITY_EXT_INDEX) -- Value=0x00000000  returns 0x00 (0000ms, 7943ms total)
T656C 1819:186 JLINK_SetResetType(JLINKARM_CM3_RESET_TYPE_NORMAL)  returns JLINKARM_CM3_RESET_TYPE_NORMAL (0000ms, 7943ms total)
T656C 1819:186 JLINK_Reset() -- CPU is running -- CPU_WriteMem(4 bytes @ 0xE000EDF0) -- CPU is running -- CPU_WriteMem(4 bytes @ 0xE000EDFC)Reset: Halt core after reset via DEMCR.VC_CORERESET. >0x35 TIF>Reset: Reset device via AIRCR.SYSRESETREQ. -- CPU is running -- CPU_WriteMem(4 bytes @ 0xE000ED0C) >0x0D TIF> >0x28 TIF> -- CPU_ReadMem(4 bytes @ 0xE000EDF0) -- CPU_ReadMem(4 bytes @ 0xE000EDF0) -- CPU is running -- CPU_WriteMem(4 bytes @ 0xE000EDF0) -- CPU is running -- CPU_WriteMem(4 bytes @ 0xE000EDFC)
 -- CPU_ReadMem(4 bytes @ 0xE000EDF0) -- CPU_WriteMem(4 bytes @ 0xE0002000) -- CPU_ReadMem(4 bytes @ 0xE000EDFC) -- CPU_ReadMem(4 bytes @ 0xE0001000) (0071ms, 8014ms total)
T656C 1819:257 JLINK_ReadReg(R15 (PC))  returns 0x08000294 (0000ms, 8014ms total)
T656C 1819:257 JLINK_ReadReg(XPSR)  returns 0x01000000 (0000ms, 8014ms total)
T656C 1819:257 JLINK_Halt()  returns 0x00 (0000ms, 8014ms total)
T656C 1819:257 JLINK_ReadMemU32(0xE000EDF0, 0x0001 Items, ...) -- CPU_ReadMem(4 bytes @ 0xE000EDF0) - Data: 03 00 03 00  returns 0x01 (0001ms, 8015ms total)
T656C 1819:258 JLINK_WriteU32(0xE000EDF0, 0xA05F0003) -- CPU_WriteMem(4 bytes @ 0xE000EDF0)  returns 0x00 (0001ms, 8016ms total)
T656C 1819:259 JLINK_WriteU32(0xE000EDFC, 0x01000000) -- CPU_WriteMem(4 bytes @ 0xE000EDFC)  returns 0x00 (0001ms, 8017ms total)
T656C 1819:260 JLINK_GetHWStatus(...)  returns 0x00 (0000ms, 8017ms total)
T656C 1819:260 JLINK_GetNumBPUnits(Type = 0xFFFFFF00)  returns 0x06 (0000ms, 8017ms total)
T656C 1819:260 JLINK_GetNumBPUnits(Type = 0xF0)  returns 0x2000 (0000ms, 8017ms total)
T656C 1819:260 JLINK_GetNumWPUnits()  returns 0x04 (0000ms, 8017ms total)
T656C 1819:260 JLINK_GetSpeed()  returns 0x1770 (0000ms, 8017ms total)
T656C 1819:260 JLINK_ReadMemU32(0xE000E004, 0x0001 Items, ...) -- CPU_ReadMem(4 bytes @ 0xE000E004) - Data: 02 00 00 00  returns 0x01 (0001ms, 8018ms total)
T656C 1819:261 JLINK_ReadMemU32(0xE000E004, 0x0001 Items, ...) -- CPU_ReadMem(4 bytes @ 0xE000E004) - Data: 02 00 00 00  returns 0x01 (0001ms, 8019ms total)
T656C 1819:262 JLINK_WriteMemEx(0xE0001000, 0x001C Bytes, ..., Flags = 0x02000004) - Data: 01 00 00 00 00 00 00 00 00 00 00 00 00 00 00 00 ... -- CPU_WriteMem(28 bytes @ 0xE0001000)  returns 0x1C (0001ms, 8020ms total)
T656C 1819:263 JLINK_ReadReg(R15 (PC))  returns 0x08000294 (0000ms, 8020ms total)
T656C 1819:263 JLINK_ReadReg(XPSR)  returns 0x01000000 (0000ms, 8020ms total)
T656C 1819:270 JLINK_ReadMemEx(0xE0001004, 0x0004 Bytes, ..., Flags = 0x02000000) - Data: 00 00 00 00  returns 0x04 (0000ms, 8020ms total)
T656C 1819:353 JLINK_SetResetType(JLINKARM_CM3_RESET_TYPE_NORMAL)  returns JLINKARM_CM3_RESET_TYPE_NORMAL (0000ms, 8020ms total)
T656C 1819:353 JLINK_Reset() -- CPU_WriteMem(4 bytes @ 0xE000EDF0) -- CPU_WriteMem(4 bytes @ 0xE000EDFC)Reset: Halt core after reset via DEMCR.VC_CORERESET. >0x35 TIF>Reset: Reset device via AIRCR.SYSRESETREQ. -- CPU_WriteMem(4 bytes @ 0xE000ED0C) >0x0D TIF> >0x28 TIF> -- CPU_ReadMem(4 bytes @ 0xE000EDF0) -- CPU_ReadMem(4 bytes @ 0xE000EDF0) -- CPU_WriteMem(4 bytes @ 0xE000EDF0) -- CPU_WriteMem(4 bytes @ 0xE000EDFC) -- CPU_ReadMem(4 bytes @ 0xE000EDF0) -- CPU_WriteMem(4 bytes @ 0xE0002000)
 -- CPU_ReadMem(4 bytes @ 0xE000EDFC) -- CPU_ReadMem(4 bytes @ 0xE0001000) (0071ms, 8091ms total)
T656C 1819:424 JLINK_ReadReg(R15 (PC))  returns 0x08000294 (0000ms, 8091ms total)
T656C 1819:424 JLINK_ReadReg(XPSR)  returns 0x01000000 (0000ms, 8091ms total)
T656C 1819:771 JLINK_ReadMemEx(0x08000194, 0x003C Bytes, ..., Flags = 0x02000000) -- CPU_ReadMem(128 bytes @ 0x08000180) -- Updating C cache (128 bytes @ 0x08000180) -- Read from C cache (60 bytes @ 0x08000194) - Data: 00 0C 82 44 83 44 AA F1 01 07 DA 45 01 D1 00 F0 ...  returns 0x3C (0002ms, 8093ms total)
T656C 1819:773 JLINK_ReadMemEx(0x080001D0, 0x003C Bytes, ..., Flags = 0x02000000) -- CPU_ReadMem(64 bytes @ 0x08000200) -- Updating C cache (64 bytes @ 0x08000200) -- Read from C cache (60 bytes @ 0x080001D0) - Data: 07 04 08 BF 10 F8 01 4B 1D 11 08 BF 10 F8 01 5B ...  returns 0x3C (0001ms, 8094ms total)
T656C 1819:774 JLINK_ReadMemEx(0x0800020C, 0x003C Bytes, ..., Flags = 0x02000000) -- CPU_ReadMem(64 bytes @ 0x08000240) -- Updating C cache (64 bytes @ 0x08000240) -- Read from C cache (60 bytes @ 0x0800020C) - Data: 14 F8 01 6B 01 F8 01 6B 6D 1E F9 D5 91 42 D6 D3 ...  returns 0x3C (0001ms, 8095ms total)
T656C 1819:775 JLINK_ReadMemEx(0x08000248, 0x003C Bytes, ..., Flags = 0x02000000) -- CPU_ReadMem(64 bytes @ 0x08000280) -- Updating C cache (64 bytes @ 0x08000280) -- Read from C cache (60 bytes @ 0x08000248) - Data: 78 29 00 F0 DD 80 73 29 00 F0 31 84 00 20 70 47 ...  returns 0x3C (0001ms, 8096ms total)
T656C 1819:776 JLINK_ReadMemEx(0x08000284, 0x003C Bytes, ..., Flags = 0x02000000) -- Read from C cache (60 bytes @ 0x08000284) - Data: 00 F0 EC FE 03 B4 FF F7 F2 FF 03 BC 01 F0 B0 FD ...  returns 0x3C (0000ms, 8096ms total)
T656C 1821:888 JLINK_ReadReg(R0)  returns 0x00000000 (0001ms, 8097ms total)
T656C 1821:889 JLINK_ReadReg(R1)  returns 0x00000000 (0000ms, 8097ms total)
T656C 1821:889 JLINK_ReadReg(R2)  returns 0x00000000 (0000ms, 8097ms total)
T656C 1821:889 JLINK_ReadReg(R3)  returns 0x00000000 (0000ms, 8097ms total)
T656C 1821:889 JLINK_ReadReg(R4)  returns 0x00000000 (0000ms, 8097ms total)
T656C 1821:889 JLINK_ReadReg(R5)  returns 0x00000000 (0000ms, 8097ms total)
T656C 1821:889 JLINK_ReadReg(R6)  returns 0x00000000 (0000ms, 8097ms total)
T656C 1821:889 JLINK_ReadReg(R7)  returns 0x00000000 (0000ms, 8097ms total)
T656C 1821:889 JLINK_ReadReg(R8)  returns 0x00000000 (0000ms, 8097ms total)
T656C 1821:889 JLINK_ReadReg(R9)  returns 0x00000000 (0000ms, 8097ms total)
T656C 1821:889 JLINK_ReadReg(R10)  returns 0x00000000 (0000ms, 8097ms total)
T656C 1821:889 JLINK_ReadReg(R11)  returns 0x00000000 (0000ms, 8097ms total)
T656C 1821:889 JLINK_ReadReg(R12)  returns 0x00000000 (0000ms, 8097ms total)
T656C 1821:889 JLINK_ReadReg(R13 (SP))  returns 0x2001DE78 (0000ms, 8097ms total)
T656C 1821:889 JLINK_ReadReg(R14)  returns 0xFFFFFFFF (0000ms, 8097ms total)
T656C 1821:889 JLINK_ReadReg(R15 (PC))  returns 0x08000294 (0000ms, 8097ms total)
T656C 1821:889 JLINK_ReadReg(XPSR)  returns 0x01000000 (0000ms, 8097ms total)
T656C 1821:889 JLINK_ReadReg(MSP)  returns 0x2001DE78 (0000ms, 8097ms total)
T656C 1821:889 JLINK_ReadReg(PSP)  returns 0x00000000 (0000ms, 8097ms total)
T656C 1821:889 JLINK_ReadReg(CFBP)  returns 0x00000000 (0000ms, 8097ms total)
T656C 1821:889 JLINK_ReadReg(FPSCR)  returns 0x00000000 (0003ms, 8100ms total)
T656C 1821:892 JLINK_ReadReg(FPS0)  returns 0x00000000 (0000ms, 8100ms total)
T656C 1821:892 JLINK_ReadReg(FPS1)  returns 0x00000000 (0000ms, 8100ms total)
T656C 1821:892 JLINK_ReadReg(FPS2)  returns 0x00000000 (0000ms, 8100ms total)
T656C 1821:892 JLINK_ReadReg(FPS3)  returns 0x00000000 (0000ms, 8100ms total)
T656C 1821:892 JLINK_ReadReg(FPS4)  returns 0x00000000 (0000ms, 8100ms total)
T656C 1821:892 JLINK_ReadReg(FPS5)  returns 0x00000000 (0000ms, 8100ms total)
T656C 1821:892 JLINK_ReadReg(FPS6)  returns 0x00000000 (0000ms, 8100ms total)
T656C 1821:892 JLINK_ReadReg(FPS7)  returns 0x00000000 (0000ms, 8100ms total)
T656C 1821:892 JLINK_ReadReg(FPS8)  returns 0x00000000 (0000ms, 8100ms total)
T656C 1821:892 JLINK_ReadReg(FPS9)  returns 0x00000000 (0000ms, 8100ms total)
T656C 1821:892 JLINK_ReadReg(FPS10)  returns 0x00000000 (0000ms, 8100ms total)
T656C 1821:892 JLINK_ReadReg(FPS11)  returns 0x00000000 (0000ms, 8100ms total)
T656C 1821:892 JLINK_ReadReg(FPS12)  returns 0x00000000 (0001ms, 8101ms total)
T656C 1821:893 JLINK_ReadReg(FPS13)  returns 0x00000000 (0000ms, 8101ms total)
T656C 1821:893 JLINK_ReadReg(FPS14)  returns 0x00000000 (0000ms, 8101ms total)
T656C 1821:893 JLINK_ReadReg(FPS15)  returns 0x00000000 (0000ms, 8101ms total)
T656C 1821:893 JLINK_ReadReg(FPS16)  returns 0x00000000 (0000ms, 8101ms total)
T656C 1821:893 JLINK_ReadReg(FPS17)  returns 0x00000000 (0000ms, 8101ms total)
T656C 1821:893 JLINK_ReadReg(FPS18)  returns 0x00000000 (0000ms, 8101ms total)
T656C 1821:893 JLINK_ReadReg(FPS19)  returns 0x00000000 (0000ms, 8101ms total)
T656C 1821:893 JLINK_ReadReg(FPS20)  returns 0x00000000 (0000ms, 8101ms total)
T656C 1821:893 JLINK_ReadReg(FPS21)  returns 0x00000000 (0000ms, 8101ms total)
T656C 1821:893 JLINK_ReadReg(FPS22)  returns 0x00000000 (0000ms, 8101ms total)
T656C 1821:893 JLINK_ReadReg(FPS23)  returns 0x00000000 (0000ms, 8101ms total)
T656C 1821:893 JLINK_ReadReg(FPS24)  returns 0x00000000 (0000ms, 8101ms total)
T656C 1821:893 JLINK_ReadReg(FPS25)  returns 0x00000000 (0000ms, 8101ms total)
T656C 1821:893 JLINK_ReadReg(FPS26)  returns 0x00000000 (0000ms, 8101ms total)
T656C 1821:893 JLINK_ReadReg(FPS27)  returns 0x00000000 (0000ms, 8101ms total)
T656C 1821:893 JLINK_ReadReg(FPS28)  returns 0x00000000 (0000ms, 8101ms total)
T656C 1821:893 JLINK_ReadReg(FPS29)  returns 0x00000000 (0000ms, 8101ms total)
T656C 1821:893 JLINK_ReadReg(FPS30)  returns 0x00000000 (0000ms, 8101ms total)
T656C 1821:893 JLINK_ReadReg(FPS31)  returns 0x00000000 (0000ms, 8101ms total)
T656C 1821:918 JLINK_ReadMemEx(0x20000064, 0x0004 Bytes, ..., Flags = 0x02000000) -- CPU_ReadMem(64 bytes @ 0x20000040) -- Updating C cache (64 bytes @ 0x20000040) -- Read from C cache (4 bytes @ 0x20000064) - Data: A0 3B 01 20  returns 0x04 (0002ms, 8103ms total)
T656C 1821:932 JLINK_ReadMemEx(0x20000580, 0x0004 Bytes, ..., Flags = 0x02000000) -- CPU_ReadMem(64 bytes @ 0x20000580) -- Updating C cache (64 bytes @ 0x20000580) -- Read from C cache (4 bytes @ 0x20000580) - Data: 20 35 01 20  returns 0x04 (0002ms, 8105ms total)
T656C 1821:941 JLINK_ReadMemEx(0x2000005C, 0x0004 Bytes, ..., Flags = 0x02000000) -- Read from C cache (4 bytes @ 0x2000005C) - Data: 40 35 01 20  returns 0x04 (0000ms, 8105ms total)
T656C 1821:946 JLINK_ReadMemEx(0x20000584, 0x0004 Bytes, ..., Flags = 0x02000000) -- Read from C cache (4 bytes @ 0x20000584) - Data: 06 24 02 03  returns 0x04 (0000ms, 8105ms total)
T656C 1821:951 JLINK_ReadMemEx(0x200005D8, 0x0004 Bytes, ..., Flags = 0x02000000) -- CPU_ReadMem(64 bytes @ 0x200005C0) -- Updating C cache (64 bytes @ 0x200005C0) -- Read from C cache (4 bytes @ 0x200005D8) - Data: A0 34 01 20  returns 0x04 (0001ms, 8106ms total)
T67EC 1821:998 JLINK_ReadMemEx(0x08000294, 0x0002 Bytes, ..., Flags = 0x02000000) -- Read from C cache (2 bytes @ 0x08000294) - Data: 09 48  returns 0x02 (0000ms, 8106ms total)
T67EC 1821:998 JLINK_SetBPEx(Addr = 0x08004214, Type = 0xFFFFFFF2)  returns 0x00000001 (0000ms, 8106ms total)
T67EC 1821:998 JLINK_SetBPEx(Addr = 0x08004216, Type = 0xFFFFFFF2)  returns 0x00000002 (0000ms, 8106ms total)
T67EC 1821:998 JLINK_SetBPEx(Addr = 0x080019E2, Type = 0xFFFFFFF2)  returns 0x00000003 (0000ms, 8106ms total)
T67EC 1821:998 JLINK_Go() -- CPU_WriteMem(4 bytes @ 0xE0002000) -- CPU_WriteMem(4 bytes @ 0xE0002000) -- CPU_WriteMem(4 bytes @ 0xE0002000) -- CPU_ReadMem(4 bytes @ 0xE0001000) -- CPU_WriteMem(4 bytes @ 0xE0002008) -- CPU_WriteMem(4 bytes @ 0xE000200C) -- CPU_WriteMem(4 bytes @ 0xE0002010) -- CPU_WriteMem(4 bytes @ 0xE0002014) -- CPU_WriteMem(4 bytes @ 0xE0002018) -- CPU_WriteMem(4 bytes @ 0xE000201C) -- CPU_WriteMem(4 bytes @ 0xE0001004) (0006ms, 8112ms total)
T67EC 1822:106 JLINK_IsHalted()  returns TRUE (0003ms, 8115ms total)
T67EC 1822:109 JLINK_Halt()  returns 0x00 (0000ms, 8112ms total)
T67EC 1822:109 JLINK_IsHalted()  returns TRUE (0000ms, 8112ms total)
T67EC 1822:109 JLINK_IsHalted()  returns TRUE (0000ms, 8112ms total)
T67EC 1822:109 JLINK_IsHalted()  returns TRUE (0000ms, 8112ms total)
T67EC 1822:109 JLINK_ReadReg(R15 (PC))  returns 0x08004214 (0000ms, 8112ms total)
T67EC 1822:109 JLINK_ReadReg(XPSR)  returns 0x01000000 (0000ms, 8112ms total)
T67EC 1822:109 JLINK_ClrBPEx(BPHandle = 0x00000001)  returns 0x00 (0000ms, 8112ms total)
T67EC 1822:109 JLINK_ClrBPEx(BPHandle = 0x00000002)  returns 0x00 (0000ms, 8112ms total)
T67EC 1822:109 JLINK_ClrBPEx(BPHandle = 0x00000003)  returns 0x00 (0000ms, 8112ms total)
T67EC 1822:109 JLINK_ReadMemU32(0xE000ED30, 0x0001 Items, ...) -- CPU_ReadMem(4 bytes @ 0xE000ED30) - Data: 02 00 00 00  returns 0x01 (0001ms, 8113ms total)
T67EC 1822:110 JLINK_ReadMemU32(0xE0001028, 0x0001 Items, ...) -- CPU_ReadMem(4 bytes @ 0xE0001028) - Data: 00 00 00 00  returns 0x01 (0001ms, 8114ms total)
T67EC 1822:111 JLINK_ReadMemU32(0xE0001038, 0x0001 Items, ...) -- CPU_ReadMem(4 bytes @ 0xE0001038) - Data: 00 02 00 00  returns 0x01 (0001ms, 8115ms total)
T67EC 1822:112 JLINK_ReadMemU32(0xE0001048, 0x0001 Items, ...) -- CPU_ReadMem(4 bytes @ 0xE0001048) - Data: 00 00 00 00  returns 0x01 (0000ms, 8115ms total)
T67EC 1822:112 JLINK_ReadMemU32(0xE0001058, 0x0001 Items, ...) -- CPU_ReadMem(4 bytes @ 0xE0001058) - Data: 00 00 00 00  returns 0x01 (0001ms, 8116ms total)
T67EC 1822:113 JLINK_ReadReg(R0)  returns 0x20015A78 (0000ms, 8116ms total)
T67EC 1822:113 JLINK_ReadReg(R1)  returns 0x2001DA78 (0000ms, 8116ms total)
T67EC 1822:113 JLINK_ReadReg(R2)  returns 0x2001DA78 (0000ms, 8116ms total)
T67EC 1822:113 JLINK_ReadReg(R3)  returns 0x2001DA78 (0000ms, 8116ms total)
T67EC 1822:113 JLINK_ReadReg(R4)  returns 0x00000000 (0000ms, 8116ms total)
T67EC 1822:113 JLINK_ReadReg(R5)  returns 0x20015A14 (0000ms, 8116ms total)
T67EC 1822:113 JLINK_ReadReg(R6)  returns 0x00000000 (0000ms, 8116ms total)
T67EC 1822:113 JLINK_ReadReg(R7)  returns 0x00000000 (0000ms, 8116ms total)
T67EC 1822:113 JLINK_ReadReg(R8)  returns 0x00000000 (0000ms, 8116ms total)
T67EC 1822:113 JLINK_ReadReg(R9)  returns 0x00000000 (0000ms, 8116ms total)
T67EC 1822:113 JLINK_ReadReg(R10)  returns 0x08007690 (0000ms, 8116ms total)
T67EC 1822:113 JLINK_ReadReg(R11)  returns 0x00000000 (0000ms, 8116ms total)
T67EC 1822:113 JLINK_ReadReg(R12)  returns 0x20015A54 (0000ms, 8116ms total)
T67EC 1822:113 JLINK_ReadReg(R13 (SP))  returns 0x2001DE78 (0000ms, 8116ms total)
T67EC 1822:113 JLINK_ReadReg(R14)  returns 0x08000285 (0000ms, 8116ms total)
T67EC 1822:113 JLINK_ReadReg(R15 (PC))  returns 0x08004214 (0000ms, 8116ms total)
T67EC 1822:113 JLINK_ReadReg(XPSR)  returns 0x01000000 (0000ms, 8116ms total)
T67EC 1822:113 JLINK_ReadReg(MSP)  returns 0x2001DE78 (0000ms, 8116ms total)
T67EC 1822:113 JLINK_ReadReg(PSP)  returns 0x00000000 (0001ms, 8117ms total)
T67EC 1822:114 JLINK_ReadReg(CFBP)  returns 0x04000000 (0000ms, 8117ms total)
T67EC 1822:114 JLINK_ReadReg(FPSCR)  returns 0x03000000 (0003ms, 8120ms total)
T67EC 1822:118 JLINK_ReadReg(FPS0)  returns 0x00000000 (0000ms, 8120ms total)
T67EC 1822:118 JLINK_ReadReg(FPS1)  returns 0x00000000 (0000ms, 8120ms total)
T67EC 1822:118 JLINK_ReadReg(FPS2)  returns 0x00000000 (0000ms, 8120ms total)
T67EC 1822:118 JLINK_ReadReg(FPS3)  returns 0x00000000 (0000ms, 8120ms total)
T67EC 1822:118 JLINK_ReadReg(FPS4)  returns 0x00000000 (0000ms, 8120ms total)
T67EC 1822:118 JLINK_ReadReg(FPS5)  returns 0x00000000 (0000ms, 8120ms total)
T67EC 1822:118 JLINK_ReadReg(FPS6)  returns 0x00000000 (0000ms, 8120ms total)
T67EC 1822:118 JLINK_ReadReg(FPS7)  returns 0x00000000 (0000ms, 8120ms total)
T67EC 1822:118 JLINK_ReadReg(FPS8)  returns 0x00000000 (0000ms, 8120ms total)
T67EC 1822:118 JLINK_ReadReg(FPS9)  returns 0x00000000 (0000ms, 8120ms total)
T67EC 1822:118 JLINK_ReadReg(FPS10)  returns 0x00000000 (0000ms, 8120ms total)
T67EC 1822:118 JLINK_ReadReg(FPS11)  returns 0x00000000 (0000ms, 8120ms total)
T67EC 1822:118 JLINK_ReadReg(FPS12)  returns 0x00000000 (0000ms, 8120ms total)
T67EC 1822:118 JLINK_ReadReg(FPS13)  returns 0x00000000 (0000ms, 8120ms total)
T67EC 1822:118 JLINK_ReadReg(FPS14)  returns 0x00000000 (0000ms, 8120ms total)
T67EC 1822:118 JLINK_ReadReg(FPS15)  returns 0x00000000 (0000ms, 8120ms total)
T67EC 1822:118 JLINK_ReadReg(FPS16)  returns 0x00000000 (0000ms, 8120ms total)
T67EC 1822:118 JLINK_ReadReg(FPS17)  returns 0x00000000 (0000ms, 8120ms total)
T67EC 1822:118 JLINK_ReadReg(FPS18)  returns 0x00000000 (0000ms, 8120ms total)
T67EC 1822:118 JLINK_ReadReg(FPS19)  returns 0x00000000 (0000ms, 8120ms total)
T67EC 1822:118 JLINK_ReadReg(FPS20)  returns 0x00000000 (0000ms, 8120ms total)
T67EC 1822:118 JLINK_ReadReg(FPS21)  returns 0x00000000 (0000ms, 8120ms total)
T67EC 1822:118 JLINK_ReadReg(FPS22)  returns 0x00000000 (0000ms, 8120ms total)
T67EC 1822:118 JLINK_ReadReg(FPS23)  returns 0x00000000 (0000ms, 8120ms total)
T67EC 1822:118 JLINK_ReadReg(FPS24)  returns 0x00000000 (0000ms, 8120ms total)
T67EC 1822:118 JLINK_ReadReg(FPS25)  returns 0x00000000 (0000ms, 8120ms total)
T67EC 1822:118 JLINK_ReadReg(FPS26)  returns 0x00000000 (0000ms, 8120ms total)
T67EC 1822:118 JLINK_ReadReg(FPS27)  returns 0x00000000 (0000ms, 8120ms total)
T67EC 1822:118 JLINK_ReadReg(FPS28)  returns 0x00000000 (0000ms, 8120ms total)
T67EC 1822:118 JLINK_ReadReg(FPS29)  returns 0x00000000 (0000ms, 8120ms total)
T67EC 1822:118 JLINK_ReadReg(FPS30)  returns 0x00000000 (0000ms, 8120ms total)
T67EC 1822:118 JLINK_ReadReg(FPS31)  returns 0x00000000 (0000ms, 8120ms total)
T656C 1822:119 JLINK_ReadMemU32(0xE0001004, 0x0001 Items, ...) -- CPU_ReadMem(4 bytes @ 0xE0001004) - Data: 6C 32 01 00  returns 0x01 (0001ms, 8121ms total)
T656C 1822:120 JLINK_ReadMemEx(0x20000064, 0x0004 Bytes, ..., Flags = 0x02000000) -- CPU_ReadMem(64 bytes @ 0x20000040) -- Updating C cache (64 bytes @ 0x20000040) -- Read from C cache (4 bytes @ 0x20000064) - Data: 00 00 00 00  returns 0x04 (0001ms, 8122ms total)
T656C 1822:122 JLINK_ReadMemEx(0x20000580, 0x0004 Bytes, ..., Flags = 0x02000000) -- CPU_ReadMem(64 bytes @ 0x20000580) -- Updating C cache (64 bytes @ 0x20000580) -- Read from C cache (4 bytes @ 0x20000580) - Data: 00 00 00 00  returns 0x04 (0001ms, 8123ms total)
T656C 1822:123 JLINK_ReadMemEx(0x2000005C, 0x0004 Bytes, ..., Flags = 0x02000000) -- Read from C cache (4 bytes @ 0x2000005C) - Data: 00 00 00 00  returns 0x04 (0000ms, 8123ms total)
T656C 1822:123 JLINK_ReadMemEx(0x20000584, 0x0004 Bytes, ..., Flags = 0x02000000) -- Read from C cache (4 bytes @ 0x20000584) - Data: 00 00 00 00  returns 0x04 (0000ms, 8123ms total)
T656C 1822:124 JLINK_ReadMemEx(0x200005D8, 0x0004 Bytes, ..., Flags = 0x02000000) -- CPU_ReadMem(64 bytes @ 0x200005C0) -- Updating C cache (64 bytes @ 0x200005C0) -- Read from C cache (4 bytes @ 0x200005D8) - Data: 00 00 00 00  returns 0x04 (0001ms, 8124ms total)
T656C 1822:128 JLINK_ReadMemEx(0x08004114, 0x003C Bytes, ..., Flags = 0x02000000) -- CPU_ReadMem(128 bytes @ 0x08004100) -- Updating C cache (128 bytes @ 0x08004100) -- Read from C cache (60 bytes @ 0x08004114) - Data: 00 20 28 49 09 68 A1 F8 48 06 0B 20 25 49 09 68 ...  returns 0x3C (0002ms, 8126ms total)
T656C 1822:130 JLINK_ReadMemEx(0x08004150, 0x003C Bytes, ..., Flags = 0x02000000) -- CPU_ReadMem(64 bytes @ 0x08004180) -- Updating C cache (64 bytes @ 0x08004180) -- Read from C cache (60 bytes @ 0x08004150) - Data: 19 49 09 68 89 6B 08 60 17 49 09 68 89 6B 81 F8 ...  returns 0x3C (0001ms, 8127ms total)
T656C 1822:131 JLINK_ReadMemEx(0x0800418C, 0x003C Bytes, ..., Flags = 0x02000000) -- CPU_ReadMem(64 bytes @ 0x080041C0) -- Updating C cache (64 bytes @ 0x080041C0) -- Read from C cache (60 bytes @ 0x0800418C) - Data: 09 68 C8 61 0A 48 09 49 09 68 C1 F8 44 06 00 20 ...  returns 0x3C (0001ms, 8128ms total)
T656C 1822:132 JLINK_ReadMemEx(0x080041C8, 0x003C Bytes, ..., Flags = 0x02000000) -- CPU_ReadMem(64 bytes @ 0x08004200) -- Updating C cache (64 bytes @ 0x08004200) -- Read from C cache (60 bytes @ 0x080041C8) - Data: 10 B5 4F F2 E0 60 00 F0 37 F9 0F 49 09 68 C1 F8 ...  returns 0x3C (0001ms, 8129ms total)
T656C 1822:133 JLINK_ReadMemEx(0x08004204, 0x003C Bytes, ..., Flags = 0x02000000) -- Read from C cache (60 bytes @ 0x08004204) - Data: 02 49 09 68 81 F8 3A 0A 10 BD 00 00 64 00 00 20 ...  returns 0x3C (0000ms, 8129ms total)
T67EC 1824:811 JLINK_ReadMemEx(0x08004214, 0x0002 Bytes, ..., Flags = 0x02000000) -- Read from C cache (2 bytes @ 0x08004214) - Data: 10 B5  returns 0x02 (0000ms, 8129ms total)
T67EC 1824:811 JLINK_SetBPEx(Addr = 0x08004216, Type = 0xFFFFFFF2)  returns 0x00000004 (0000ms, 8129ms total)
T67EC 1824:811 JLINK_SetBPEx(Addr = 0x080019E2, Type = 0xFFFFFFF2)  returns 0x00000005 (0000ms, 8129ms total)
T67EC 1824:811 JLINK_Go() -- CPU_WriteMem(4 bytes @ 0xE0002000) -- CPU_WriteMem(4 bytes @ 0xE0002000) -- CPU_ReadMem(4 bytes @ 0xE0001000) -- CPU_WriteMem(4 bytes @ 0xE0002008) -- CPU_WriteMem(4 bytes @ 0xE000200C) -- CPU_WriteMem(4 bytes @ 0xE0002010) (0005ms, 8134ms total)
T67EC 1824:917 JLINK_IsHalted()  returns TRUE (0003ms, 8137ms total)
T67EC 1824:920 JLINK_Halt()  returns 0x00 (0000ms, 8134ms total)
T67EC 1824:920 JLINK_IsHalted()  returns TRUE (0000ms, 8134ms total)
T67EC 1824:920 JLINK_IsHalted()  returns TRUE (0000ms, 8134ms total)
T67EC 1824:920 JLINK_IsHalted()  returns TRUE (0000ms, 8134ms total)
T67EC 1824:920 JLINK_ReadReg(R15 (PC))  returns 0x08004216 (0000ms, 8134ms total)
T67EC 1824:920 JLINK_ReadReg(XPSR)  returns 0x01000000 (0000ms, 8134ms total)
T67EC 1824:920 JLINK_ClrBPEx(BPHandle = 0x00000004)  returns 0x00 (0000ms, 8134ms total)
T67EC 1824:920 JLINK_ClrBPEx(BPHandle = 0x00000005)  returns 0x00 (0000ms, 8134ms total)
T67EC 1824:920 JLINK_ReadMemU32(0xE000ED30, 0x0001 Items, ...) -- CPU_ReadMem(4 bytes @ 0xE000ED30) - Data: 02 00 00 00  returns 0x01 (0001ms, 8135ms total)
T67EC 1824:921 JLINK_ReadMemU32(0xE0001028, 0x0001 Items, ...) -- CPU_ReadMem(4 bytes @ 0xE0001028) - Data: 00 00 00 00  returns 0x01 (0002ms, 8137ms total)
T67EC 1824:923 JLINK_ReadMemU32(0xE0001038, 0x0001 Items, ...) -- CPU_ReadMem(4 bytes @ 0xE0001038) - Data: 00 02 00 00  returns 0x01 (0000ms, 8137ms total)
T67EC 1824:923 JLINK_ReadMemU32(0xE0001048, 0x0001 Items, ...) -- CPU_ReadMem(4 bytes @ 0xE0001048) - Data: 00 00 00 00  returns 0x01 (0001ms, 8138ms total)
T67EC 1824:924 JLINK_ReadMemU32(0xE0001058, 0x0001 Items, ...) -- CPU_ReadMem(4 bytes @ 0xE0001058) - Data: 00 00 00 00  returns 0x01 (0000ms, 8138ms total)
T67EC 1824:924 JLINK_ReadReg(R0)  returns 0x20015A78 (0000ms, 8138ms total)
T67EC 1824:924 JLINK_ReadReg(R1)  returns 0x2001DA78 (0000ms, 8138ms total)
T67EC 1824:924 JLINK_ReadReg(R2)  returns 0x2001DA78 (0000ms, 8138ms total)
T67EC 1824:924 JLINK_ReadReg(R3)  returns 0x2001DA78 (0000ms, 8138ms total)
T67EC 1824:925 JLINK_ReadReg(R4)  returns 0x00000000 (0000ms, 8138ms total)
T67EC 1824:925 JLINK_ReadReg(R5)  returns 0x20015A14 (0000ms, 8138ms total)
T67EC 1824:925 JLINK_ReadReg(R6)  returns 0x00000000 (0000ms, 8138ms total)
T67EC 1824:925 JLINK_ReadReg(R7)  returns 0x00000000 (0000ms, 8138ms total)
T67EC 1824:925 JLINK_ReadReg(R8)  returns 0x00000000 (0000ms, 8138ms total)
T67EC 1824:925 JLINK_ReadReg(R9)  returns 0x00000000 (0000ms, 8138ms total)
T67EC 1824:925 JLINK_ReadReg(R10)  returns 0x08007690 (0000ms, 8138ms total)
T67EC 1824:925 JLINK_ReadReg(R11)  returns 0x00000000 (0000ms, 8138ms total)
T67EC 1824:925 JLINK_ReadReg(R12)  returns 0x20015A54 (0000ms, 8138ms total)
T67EC 1824:925 JLINK_ReadReg(R13 (SP))  returns 0x2001DE70 (0000ms, 8138ms total)
T67EC 1824:925 JLINK_ReadReg(R14)  returns 0x08000285 (0000ms, 8138ms total)
T67EC 1824:925 JLINK_ReadReg(R15 (PC))  returns 0x08004216 (0000ms, 8138ms total)
T67EC 1824:925 JLINK_ReadReg(XPSR)  returns 0x01000000 (0000ms, 8138ms total)
T67EC 1824:925 JLINK_ReadReg(MSP)  returns 0x2001DE70 (0000ms, 8138ms total)
T67EC 1824:925 JLINK_ReadReg(PSP)  returns 0x00000000 (0000ms, 8138ms total)
T67EC 1824:925 JLINK_ReadReg(CFBP)  returns 0x04000000 (0000ms, 8138ms total)
T67EC 1824:925 JLINK_ReadReg(FPSCR)  returns 0x03000000 (0004ms, 8142ms total)
T67EC 1824:929 JLINK_ReadReg(FPS0)  returns 0x00000000 (0000ms, 8142ms total)
T67EC 1824:929 JLINK_ReadReg(FPS1)  returns 0x00000000 (0000ms, 8142ms total)
T67EC 1824:929 JLINK_ReadReg(FPS2)  returns 0x00000000 (0000ms, 8142ms total)
T67EC 1824:929 JLINK_ReadReg(FPS3)  returns 0x00000000 (0000ms, 8142ms total)
T67EC 1824:929 JLINK_ReadReg(FPS4)  returns 0x00000000 (0000ms, 8142ms total)
T67EC 1824:929 JLINK_ReadReg(FPS5)  returns 0x00000000 (0000ms, 8142ms total)
T67EC 1824:929 JLINK_ReadReg(FPS6)  returns 0x00000000 (0000ms, 8142ms total)
T67EC 1824:929 JLINK_ReadReg(FPS7)  returns 0x00000000 (0000ms, 8142ms total)
T67EC 1824:929 JLINK_ReadReg(FPS8)  returns 0x00000000 (0000ms, 8142ms total)
T67EC 1824:929 JLINK_ReadReg(FPS9)  returns 0x00000000 (0000ms, 8142ms total)
T67EC 1824:929 JLINK_ReadReg(FPS10)  returns 0x00000000 (0000ms, 8142ms total)
T67EC 1824:929 JLINK_ReadReg(FPS11)  returns 0x00000000 (0000ms, 8142ms total)
T67EC 1824:929 JLINK_ReadReg(FPS12)  returns 0x00000000 (0000ms, 8142ms total)
T67EC 1824:929 JLINK_ReadReg(FPS13)  returns 0x00000000 (0000ms, 8142ms total)
T67EC 1824:929 JLINK_ReadReg(FPS14)  returns 0x00000000 (0000ms, 8142ms total)
T67EC 1824:929 JLINK_ReadReg(FPS15)  returns 0x00000000 (0000ms, 8142ms total)
T67EC 1824:929 JLINK_ReadReg(FPS16)  returns 0x00000000 (0000ms, 8142ms total)
T67EC 1824:929 JLINK_ReadReg(FPS17)  returns 0x00000000 (0000ms, 8142ms total)
T67EC 1824:929 JLINK_ReadReg(FPS18)  returns 0x00000000 (0000ms, 8142ms total)
T67EC 1824:929 JLINK_ReadReg(FPS19)  returns 0x00000000 (0000ms, 8142ms total)
T67EC 1824:929 JLINK_ReadReg(FPS20)  returns 0x00000000 (0000ms, 8142ms total)
T67EC 1824:929 JLINK_ReadReg(FPS21)  returns 0x00000000 (0000ms, 8142ms total)
T67EC 1824:929 JLINK_ReadReg(FPS22)  returns 0x00000000 (0000ms, 8142ms total)
T67EC 1824:929 JLINK_ReadReg(FPS23)  returns 0x00000000 (0000ms, 8142ms total)
T67EC 1824:929 JLINK_ReadReg(FPS24)  returns 0x00000000 (0000ms, 8142ms total)
T67EC 1824:929 JLINK_ReadReg(FPS25)  returns 0x00000000 (0000ms, 8142ms total)
T67EC 1824:929 JLINK_ReadReg(FPS26)  returns 0x00000000 (0000ms, 8142ms total)
T67EC 1824:929 JLINK_ReadReg(FPS27)  returns 0x00000000 (0000ms, 8142ms total)
T67EC 1824:929 JLINK_ReadReg(FPS28)  returns 0x00000000 (0000ms, 8142ms total)
T67EC 1824:929 JLINK_ReadReg(FPS29)  returns 0x00000000 (0000ms, 8142ms total)
T67EC 1824:929 JLINK_ReadReg(FPS30)  returns 0x00000000 (0000ms, 8142ms total)
T67EC 1824:929 JLINK_ReadReg(FPS31)  returns 0x00000000 (0000ms, 8142ms total)
T656C 1824:930 JLINK_ReadMemEx(0x2001DE74, 0x0004 Bytes, ..., Flags = 0x02000000) -- CPU_ReadMem(64 bytes @ 0x2001DE40) -- Updating C cache (64 bytes @ 0x2001DE40) -- Read from C cache (4 bytes @ 0x2001DE74) - Data: 85 02 00 08  returns 0x04 (0001ms, 8143ms total)
T656C 1824:931 JLINK_ReadMemU32(0xE0001004, 0x0001 Items, ...) -- CPU_ReadMem(4 bytes @ 0xE0001004) - Data: 70 32 01 00  returns 0x01 (0001ms, 8144ms total)
T656C 1824:932 JLINK_ReadMemEx(0x20000064, 0x0004 Bytes, ..., Flags = 0x02000000) -- CPU_ReadMem(64 bytes @ 0x20000040) -- Updating C cache (64 bytes @ 0x20000040) -- Read from C cache (4 bytes @ 0x20000064) - Data: 00 00 00 00  returns 0x04 (0001ms, 8145ms total)
T656C 1824:933 JLINK_ReadMemEx(0x20000580, 0x0004 Bytes, ..., Flags = 0x02000000) -- CPU_ReadMem(64 bytes @ 0x20000580) -- Updating C cache (64 bytes @ 0x20000580) -- Read from C cache (4 bytes @ 0x20000580) - Data: 00 00 00 00  returns 0x04 (0001ms, 8146ms total)
T656C 1824:934 JLINK_ReadMemEx(0x2000005C, 0x0004 Bytes, ..., Flags = 0x02000000) -- Read from C cache (4 bytes @ 0x2000005C) - Data: 00 00 00 00  returns 0x04 (0000ms, 8146ms total)
T656C 1824:934 JLINK_ReadMemEx(0x20000584, 0x0004 Bytes, ..., Flags = 0x02000000) -- Read from C cache (4 bytes @ 0x20000584) - Data: 00 00 00 00  returns 0x04 (0000ms, 8146ms total)
T656C 1824:935 JLINK_ReadMemEx(0x200005D8, 0x0004 Bytes, ..., Flags = 0x02000000) -- CPU_ReadMem(64 bytes @ 0x200005C0) -- Updating C cache (64 bytes @ 0x200005C0) -- Read from C cache (4 bytes @ 0x200005D8) - Data: 00 00 00 00  returns 0x04 (0001ms, 8147ms total)
T656C 1824:945 JLINK_ReadMemEx(0x08004212, 0x0002 Bytes, ..., Flags = 0x02000000) -- CPU_ReadMem(64 bytes @ 0x08004200) -- Updating C cache (64 bytes @ 0x08004200) -- Read from C cache (2 bytes @ 0x08004212) - Data: 00 20  returns 0x02 (0002ms, 8149ms total)
T656C 1824:947 JLINK_ReadMemEx(0x08004214, 0x003C Bytes, ..., Flags = 0x02000000) -- CPU_ReadMem(64 bytes @ 0x08004240) -- Updating C cache (64 bytes @ 0x08004240) -- Read from C cache (60 bytes @ 0x08004214) - Data: 10 B5 FF F7 D7 F9 31 49 09 68 48 69 80 47 FD F7 ...  returns 0x3C (0001ms, 8150ms total)
T656C 1829:566 JLINK_ReadMemEx(0x0000000C, 0x0004 Bytes, ..., Flags = 0x02000000) -- CPU_ReadMem(4 bytes @ 0x00000004) -- CPU_ReadMem(64 bytes @ 0x08000000) -- Updating C cache (64 bytes @ 0x08000000) -- Read from C cache (4 bytes @ 0x0800000C) - Data: ED 13 00 08  returns 0x04 (0002ms, 8152ms total)
T656C 1830:735 JLINK_ReadMemEx(0x080018D8, 0x003C Bytes, ..., Flags = 0x02000000) -- CPU_ReadMem(128 bytes @ 0x080018C0) -- Updating C cache (128 bytes @ 0x080018C0) -- Read from C cache (60 bytes @ 0x080018D8) - Data: 70 48 00 68 C0 68 18 AA 01 21 03 68 00 20 98 47 ...  returns 0x3C (0001ms, 8153ms total)
T67EC 1832:032 JLINK_ReadMemEx(0x08004216, 0x0002 Bytes, ..., Flags = 0x02000000) -- Read from C cache (2 bytes @ 0x08004216) - Data: FF F7  returns 0x02 (0000ms, 8153ms total)
T67EC 1832:032 JLINK_SetBPEx(Addr = 0x080019E2, Type = 0xFFFFFFF2)  returns 0x00000006 (0000ms, 8153ms total)
T67EC 1832:032 JLINK_SetBPEx(Addr = 0x080018D8, Type = 0xFFFFFFF2)  returns 0x00000007 (0000ms, 8153ms total)
T67EC 1832:032 JLINK_Go() -- CPU_WriteMem(4 bytes @ 0xE0002000) -- CPU_WriteMem(4 bytes @ 0xE0002000) -- CPU_ReadMem(4 bytes @ 0xE0001000) -- CPU_WriteMem(4 bytes @ 0xE0002008) -- CPU_WriteMem(4 bytes @ 0xE000200C) (0005ms, 8158ms total)
T67EC 1832:138 JLINK_IsHalted()  returns FALSE (0001ms, 8159ms total)
T67EC 1832:240 JLINK_IsHalted()  returns FALSE (0000ms, 8158ms total)
T67EC 1832:341 JLINK_IsHalted()  returns FALSE (0000ms, 8158ms total)
T67EC 1832:442 JLINK_IsHalted()  returns FALSE (0000ms, 8158ms total)
T67EC 1832:543 JLINK_IsHalted()  returns FALSE (0001ms, 8159ms total)
T67EC 1832:645 JLINK_ReadMemU32(0xE0001004, 0x0001 Items, ...) -- CPU_ReadMem(4 bytes @ 0xE0001004) - Data: D3 B4 18 06  returns 0x01 (0001ms, 8159ms total)
T656C 1832:648 JLINK_ReadMemEx(0x20000064, 0x0004 Bytes, ..., Flags = 0x02000000) -- CPU_ReadMem(4 bytes @ 0x20000064) - Data: A0 3B 01 20  returns 0x04 (0002ms, 8161ms total)
T656C 1832:653 JLINK_ReadMemEx(0x20000580, 0x0004 Bytes, ..., Flags = 0x02000000) -- CPU_ReadMem(4 bytes @ 0x20000580) - Data: 20 35 01 20  returns 0x04 (0001ms, 8162ms total)
T656C 1832:655 JLINK_ReadMemEx(0x2000005C, 0x0004 Bytes, ..., Flags = 0x02000000) -- CPU_ReadMem(4 bytes @ 0x2000005C) - Data: 40 35 01 20  returns 0x04 (0001ms, 8163ms total)
T656C 1832:657 JLINK_ReadMemEx(0x20000584, 0x0004 Bytes, ..., Flags = 0x02000000) -- CPU_ReadMem(4 bytes @ 0x20000584) - Data: 06 24 02 03  returns 0x04 (0001ms, 8164ms total)
T656C 1832:659 JLINK_ReadMemEx(0x200005D8, 0x0004 Bytes, ..., Flags = 0x02000000) -- CPU_ReadMem(4 bytes @ 0x200005D8) - Data: A0 34 01 20  returns 0x04 (0001ms, 8165ms total)
T67EC 1832:661 JLINK_IsHalted()  returns FALSE (0001ms, 8166ms total)
T67EC 1832:762 JLINK_IsHalted()  returns FALSE (0000ms, 8165ms total)
T67EC 1832:864 JLINK_IsHalted()  returns FALSE (0001ms, 8166ms total)
T67EC 1832:966 JLINK_IsHalted()  returns FALSE (0001ms, 8166ms total)
T67EC 1833:068 JLINK_IsHalted()  returns FALSE (0001ms, 8166ms total)
T67EC 1833:169 JLINK_ReadMemU32(0xE0001004, 0x0001 Items, ...) - Data: D3 B4 18 06  returns 0x01 (0000ms, 8165ms total)
T656C 1833:169 JLINK_ReadMemEx(0x20000064, 0x0004 Bytes, ..., Flags = 0x02000000) -- CPU_ReadMem(4 bytes @ 0x20000064) - Data: A0 3B 01 20  returns 0x04 (0001ms, 8166ms total)
T656C 1833:170 JLINK_ReadMemEx(0x20000580, 0x0004 Bytes, ..., Flags = 0x02000000) -- CPU_ReadMem(4 bytes @ 0x20000580) - Data: 20 35 01 20  returns 0x04 (0001ms, 8167ms total)
T656C 1833:171 JLINK_ReadMemEx(0x2000005C, 0x0004 Bytes, ..., Flags = 0x02000000) -- CPU_ReadMem(4 bytes @ 0x2000005C) - Data: 40 35 01 20  returns 0x04 (0001ms, 8168ms total)
T656C 1833:172 JLINK_ReadMemEx(0x20000584, 0x0004 Bytes, ..., Flags = 0x02000000) -- CPU_ReadMem(4 bytes @ 0x20000584) - Data: 06 24 02 03  returns 0x04 (0001ms, 8169ms total)
T656C 1833:175 JLINK_ReadMemEx(0x200005D8, 0x0004 Bytes, ..., Flags = 0x02000000) -- CPU_ReadMem(4 bytes @ 0x200005D8) - Data: A0 34 01 20  returns 0x04 (0000ms, 8169ms total)
T67EC 1833:175 JLINK_IsHalted()  returns FALSE (0001ms, 8170ms total)
T67EC 1833:277 JLINK_IsHalted()  returns TRUE (0003ms, 8172ms total)
T67EC 1833:280 JLINK_Halt()  returns 0x00 (0000ms, 8169ms total)
T67EC 1833:280 JLINK_IsHalted()  returns TRUE (0000ms, 8169ms total)
T67EC 1833:280 JLINK_IsHalted()  returns TRUE (0000ms, 8169ms total)
T67EC 1833:280 JLINK_IsHalted()  returns TRUE (0000ms, 8169ms total)
T67EC 1833:280 JLINK_ReadReg(R15 (PC))  returns 0x080018D8 (0000ms, 8169ms total)
T67EC 1833:280 JLINK_ReadReg(XPSR)  returns 0x61000000 (0000ms, 8169ms total)
T67EC 1833:280 JLINK_ClrBPEx(BPHandle = 0x00000006)  returns 0x00 (0000ms, 8169ms total)
T67EC 1833:280 JLINK_ClrBPEx(BPHandle = 0x00000007)  returns 0x00 (0000ms, 8169ms total)
T67EC 1833:280 JLINK_ReadMemU32(0xE000ED30, 0x0001 Items, ...) -- CPU_ReadMem(4 bytes @ 0xE000ED30) - Data: 02 00 00 00  returns 0x01 (0001ms, 8170ms total)
T67EC 1833:281 JLINK_ReadMemU32(0xE0001028, 0x0001 Items, ...) -- CPU_ReadMem(4 bytes @ 0xE0001028) - Data: 00 00 00 00  returns 0x01 (0001ms, 8171ms total)
T67EC 1833:282 JLINK_ReadMemU32(0xE0001038, 0x0001 Items, ...) -- CPU_ReadMem(4 bytes @ 0xE0001038) - Data: 00 02 00 00  returns 0x01 (0000ms, 8171ms total)
T67EC 1833:282 JLINK_ReadMemU32(0xE0001048, 0x0001 Items, ...) -- CPU_ReadMem(4 bytes @ 0xE0001048) - Data: 00 00 00 00  returns 0x01 (0001ms, 8172ms total)
T67EC 1833:283 JLINK_ReadMemU32(0xE0001058, 0x0001 Items, ...) -- CPU_ReadMem(4 bytes @ 0xE0001058) - Data: 00 00 00 00  returns 0x01 (0001ms, 8173ms total)
T67EC 1833:284 JLINK_ReadReg(R0)  returns 0x00000000 (0000ms, 8173ms total)
T67EC 1833:284 JLINK_ReadReg(R1)  returns 0x00000000 (0000ms, 8173ms total)
T67EC 1833:284 JLINK_ReadReg(R2)  returns 0x00000000 (0000ms, 8173ms total)
T67EC 1833:284 JLINK_ReadReg(R3)  returns 0xFFFFFFFF (0000ms, 8173ms total)
T67EC 1833:284 JLINK_ReadReg(R4)  returns 0x00000000 (0000ms, 8173ms total)
T67EC 1833:284 JLINK_ReadReg(R5)  returns 0x20015A14 (0000ms, 8173ms total)
T67EC 1833:284 JLINK_ReadReg(R6)  returns 0x00000000 (0000ms, 8173ms total)
T67EC 1833:284 JLINK_ReadReg(R7)  returns 0x00000000 (0000ms, 8173ms total)
T67EC 1833:284 JLINK_ReadReg(R8)  returns 0x00000000 (0000ms, 8173ms total)
T67EC 1833:284 JLINK_ReadReg(R9)  returns 0x00000000 (0000ms, 8173ms total)
T67EC 1833:284 JLINK_ReadReg(R10)  returns 0x08007690 (0000ms, 8173ms total)
T67EC 1833:284 JLINK_ReadReg(R11)  returns 0x00000000 (0000ms, 8173ms total)
T67EC 1833:284 JLINK_ReadReg(R12)  returns 0x00000000 (0000ms, 8173ms total)
T67EC 1833:284 JLINK_ReadReg(R13 (SP))  returns 0x2001DDD8 (0000ms, 8173ms total)
T67EC 1833:284 JLINK_ReadReg(R14)  returns 0x080042CF (0000ms, 8173ms total)
T67EC 1833:284 JLINK_ReadReg(R15 (PC))  returns 0x080018D8 (0000ms, 8173ms total)
T67EC 1833:284 JLINK_ReadReg(XPSR)  returns 0x61000000 (0000ms, 8173ms total)
T67EC 1833:284 JLINK_ReadReg(MSP)  returns 0x2001DDD8 (0001ms, 8174ms total)
T67EC 1833:285 JLINK_ReadReg(PSP)  returns 0x00000000 (0000ms, 8174ms total)
T67EC 1833:285 JLINK_ReadReg(CFBP)  returns 0x04000000 (0000ms, 8174ms total)
T67EC 1833:285 JLINK_ReadReg(FPSCR)  returns 0x03000000 (0003ms, 8177ms total)
T67EC 1833:288 JLINK_ReadReg(FPS0)  returns 0x00000000 (0000ms, 8177ms total)
T67EC 1833:288 JLINK_ReadReg(FPS1)  returns 0x00000000 (0000ms, 8177ms total)
T67EC 1833:288 JLINK_ReadReg(FPS2)  returns 0x00000000 (0000ms, 8177ms total)
T67EC 1833:288 JLINK_ReadReg(FPS3)  returns 0x00000000 (0000ms, 8177ms total)
T67EC 1833:288 JLINK_ReadReg(FPS4)  returns 0x00000000 (0000ms, 8177ms total)
T67EC 1833:288 JLINK_ReadReg(FPS5)  returns 0x00000000 (0001ms, 8178ms total)
T67EC 1833:289 JLINK_ReadReg(FPS6)  returns 0x00000000 (0000ms, 8178ms total)
T67EC 1833:289 JLINK_ReadReg(FPS7)  returns 0x00000000 (0000ms, 8178ms total)
T67EC 1833:289 JLINK_ReadReg(FPS8)  returns 0x00000000 (0000ms, 8178ms total)
T67EC 1833:289 JLINK_ReadReg(FPS9)  returns 0x00000000 (0000ms, 8178ms total)
T67EC 1833:289 JLINK_ReadReg(FPS10)  returns 0x00000000 (0000ms, 8178ms total)
T67EC 1833:289 JLINK_ReadReg(FPS11)  returns 0x00000000 (0000ms, 8178ms total)
T67EC 1833:289 JLINK_ReadReg(FPS12)  returns 0x00000000 (0000ms, 8178ms total)
T67EC 1833:289 JLINK_ReadReg(FPS13)  returns 0x00000000 (0000ms, 8178ms total)
T67EC 1833:289 JLINK_ReadReg(FPS14)  returns 0x00000000 (0000ms, 8178ms total)
T67EC 1833:289 JLINK_ReadReg(FPS15)  returns 0x00000000 (0000ms, 8178ms total)
T67EC 1833:289 JLINK_ReadReg(FPS16)  returns 0x00000000 (0000ms, 8178ms total)
T67EC 1833:289 JLINK_ReadReg(FPS17)  returns 0x00000000 (0000ms, 8178ms total)
T67EC 1833:289 JLINK_ReadReg(FPS18)  returns 0x00000000 (0000ms, 8178ms total)
T67EC 1833:289 JLINK_ReadReg(FPS19)  returns 0x00000000 (0000ms, 8178ms total)
T67EC 1833:289 JLINK_ReadReg(FPS20)  returns 0x00000000 (0000ms, 8178ms total)
T67EC 1833:289 JLINK_ReadReg(FPS21)  returns 0x00000000 (0000ms, 8178ms total)
T67EC 1833:289 JLINK_ReadReg(FPS22)  returns 0x00000000 (0000ms, 8178ms total)
T67EC 1833:289 JLINK_ReadReg(FPS23)  returns 0x00000000 (0000ms, 8178ms total)
T67EC 1833:289 JLINK_ReadReg(FPS24)  returns 0x00000000 (0000ms, 8178ms total)
T67EC 1833:289 JLINK_ReadReg(FPS25)  returns 0x00000000 (0000ms, 8178ms total)
T67EC 1833:289 JLINK_ReadReg(FPS26)  returns 0x00000000 (0000ms, 8178ms total)
T67EC 1833:289 JLINK_ReadReg(FPS27)  returns 0x00000000 (0000ms, 8178ms total)
T67EC 1833:289 JLINK_ReadReg(FPS28)  returns 0x00000000 (0000ms, 8178ms total)
T67EC 1833:289 JLINK_ReadReg(FPS29)  returns 0x00000000 (0000ms, 8178ms total)
T67EC 1833:289 JLINK_ReadReg(FPS30)  returns 0x00000000 (0000ms, 8178ms total)
T67EC 1833:289 JLINK_ReadReg(FPS31)  returns 0x00000000 (0000ms, 8178ms total)
T656C 1833:289 JLINK_ReadMemEx(0x2001DE6C, 0x0004 Bytes, ..., Flags = 0x02000000) -- CPU_ReadMem(64 bytes @ 0x2001DE40) -- Updating C cache (64 bytes @ 0x2001DE40) -- Read from C cache (4 bytes @ 0x2001DE6C) - Data: CF 42 00 08  returns 0x04 (0002ms, 8180ms total)
T656C 1833:291 JLINK_ReadMemEx(0x2001DE74, 0x0004 Bytes, ..., Flags = 0x02000000) -- Read from C cache (4 bytes @ 0x2001DE74) - Data: 85 02 00 08  returns 0x04 (0000ms, 8180ms total)
T656C 1833:292 JLINK_ReadMemU32(0xE0001004, 0x0001 Items, ...) - Data: D3 B4 18 06  returns 0x01 (0000ms, 8180ms total)
T656C 1833:292 JLINK_ReadMemEx(0x20000064, 0x0004 Bytes, ..., Flags = 0x02000000) -- CPU_ReadMem(64 bytes @ 0x20000040) -- Updating C cache (64 bytes @ 0x20000040) -- Read from C cache (4 bytes @ 0x20000064) - Data: A0 3B 01 20  returns 0x04 (0001ms, 8181ms total)
T656C 1833:293 JLINK_ReadMemEx(0x20000580, 0x0004 Bytes, ..., Flags = 0x02000000) -- CPU_ReadMem(64 bytes @ 0x20000580) -- Updating C cache (64 bytes @ 0x20000580) -- Read from C cache (4 bytes @ 0x20000580) - Data: 20 35 01 20  returns 0x04 (0001ms, 8182ms total)
T656C 1833:294 JLINK_ReadMemEx(0x2000005C, 0x0004 Bytes, ..., Flags = 0x02000000) -- Read from C cache (4 bytes @ 0x2000005C) - Data: 40 35 01 20  returns 0x04 (0001ms, 8183ms total)
T656C 1833:295 JLINK_ReadMemEx(0x20000584, 0x0004 Bytes, ..., Flags = 0x02000000) -- Read from C cache (4 bytes @ 0x20000584) - Data: 06 24 02 03  returns 0x04 (0000ms, 8183ms total)
T656C 1833:295 JLINK_ReadMemEx(0x200005D8, 0x0004 Bytes, ..., Flags = 0x02000000) -- CPU_ReadMem(64 bytes @ 0x200005C0) -- Updating C cache (64 bytes @ 0x200005C0) -- Read from C cache (4 bytes @ 0x200005D8) - Data: A0 34 01 20  returns 0x04 (0001ms, 8184ms total)
T67EC 1834:711 JLINK_ReadMemEx(0x080018D8, 0x003C Bytes, ..., Flags = 0x02000000) -- CPU_ReadMem(128 bytes @ 0x080018C0) -- Updating C cache (128 bytes @ 0x080018C0) -- Read from C cache (60 bytes @ 0x080018D8) - Data: 70 48 00 68 C0 68 18 AA 01 21 03 68 00 20 98 47 ...  returns 0x3C (0002ms, 8186ms total)
T67EC 1834:713 JLINK_ReadMemEx(0x080018D8, 0x0002 Bytes, ..., Flags = 0x02000000) -- Read from C cache (2 bytes @ 0x080018D8) - Data: 70 48  returns 0x02 (0000ms, 8186ms total)
T67EC 1834:713 JLINK_Step() -- Read from C cache (2 bytes @ 0x080018D8) -- CPU_ReadMem(4 bytes @ 0xE000ED18) -- CPU_WriteMem(4 bytes @ 0xE000ED18) -- CPU_ReadMem(4 bytes @ 0xE000ED18) -- CPU_WriteMem(4 bytes @ 0xE000ED18) -- CPU_ReadMem(64 bytes @ 0x08001A80) -- Updating C cache (64 bytes @ 0x08001A80) -- Read from C cache (4 bytes @ 0x08001A9C) -- Simulated  returns 0x00 (0005ms, 8191ms total)
T67EC 1834:718 JLINK_ReadReg(R15 (PC))  returns 0x080018DA (0000ms, 8191ms total)
T67EC 1834:718 JLINK_ReadReg(XPSR)  returns 0x61000000 (0000ms, 8191ms total)
T67EC 1834:718 JLINK_ReadMemEx(0x080018DA, 0x0002 Bytes, ..., Flags = 0x02000000) -- Read from C cache (2 bytes @ 0x080018DA) - Data: 00 68  returns 0x02 (0000ms, 8191ms total)
T67EC 1834:718 JLINK_ReadMemEx(0x080018DC, 0x003C Bytes, ..., Flags = 0x02000000) -- Read from C cache (60 bytes @ 0x080018DC) - Data: C0 68 18 AA 01 21 03 68 00 20 98 47 01 A8 03 F0 ...  returns 0x3C (0000ms, 8191ms total)
T67EC 1834:718 JLINK_ReadMemEx(0x080018DC, 0x0002 Bytes, ..., Flags = 0x02000000) -- Read from C cache (2 bytes @ 0x080018DC) - Data: C0 68  returns 0x02 (0000ms, 8191ms total)
T67EC 1834:718 JLINK_Step() -- Read from C cache (2 bytes @ 0x080018DA) -- Read from C cache (4 bytes @ 0x20000064) -- Simulated  returns 0x00 (0000ms, 8191ms total)
T67EC 1834:718 JLINK_ReadReg(R15 (PC))  returns 0x080018DC (0000ms, 8191ms total)
T67EC 1834:718 JLINK_ReadReg(XPSR)  returns 0x61000000 (0000ms, 8191ms total)
T67EC 1834:718 JLINK_ReadMemEx(0x080018DC, 0x003C Bytes, ..., Flags = 0x02000000) -- Read from C cache (60 bytes @ 0x080018DC) - Data: C0 68 18 AA 01 21 03 68 00 20 98 47 01 A8 03 F0 ...  returns 0x3C (0000ms, 8191ms total)
T67EC 1834:718 JLINK_ReadMemEx(0x080018DC, 0x0002 Bytes, ..., Flags = 0x02000000) -- Read from C cache (2 bytes @ 0x080018DC) - Data: C0 68  returns 0x02 (0000ms, 8191ms total)
T67EC 1834:718 JLINK_ReadMemEx(0x080018DE, 0x0002 Bytes, ..., Flags = 0x02000000) -- Read from C cache (2 bytes @ 0x080018DE) - Data: 18 AA  returns 0x02 (0000ms, 8191ms total)
T67EC 1834:718 JLINK_Step() -- Read from C cache (2 bytes @ 0x080018DC) -- CPU_ReadMem(64 bytes @ 0x20013B80) -- Updating C cache (64 bytes @ 0x20013B80) -- Read from C cache (4 bytes @ 0x20013BAC) -- Simulated  returns 0x00 (0001ms, 8192ms total)
T67EC 1834:719 JLINK_ReadReg(R15 (PC))  returns 0x080018DE (0000ms, 8192ms total)
T67EC 1834:719 JLINK_ReadReg(XPSR)  returns 0x61000000 (0000ms, 8192ms total)
T67EC 1834:719 JLINK_ReadMemEx(0x080018DE, 0x0002 Bytes, ..., Flags = 0x02000000) -- Read from C cache (2 bytes @ 0x080018DE) - Data: 18 AA  returns 0x02 (0000ms, 8192ms total)
T67EC 1834:719 JLINK_ReadMemEx(0x080018E0, 0x003C Bytes, ..., Flags = 0x02000000) -- Read from C cache (60 bytes @ 0x080018E0) - Data: 01 21 03 68 00 20 98 47 01 A8 03 F0 AD FC 00 20 ...  returns 0x3C (0000ms, 8192ms total)
